T67D4 1723:932 SEGGER J-Link V5.00g Log File (0000ms, 32643ms total)
T67D4 1723:932 DLL Compiled: Jul  6 2015 19:45:53 (0000ms, 32643ms total)
T67D4 1723:932 Logging started @ 2016-10-12 21:35 (0000ms, 32643ms total)
T67D4 1723:963 JLINK_ExecCommand("Device = AT91SAM4S8B", ...)Device "ATSAM4S8B" selected.  returns 0x00 (0001ms, 32644ms total)
T67D4 1724:208 JLINK_ExecCommand("ProjectFile = F:\Users\Seira\AtmelProject\tpm_demo_kit\tpm_demo_kit\jlink.config", ...)  returns 0x00 (0001ms, 32645ms total)
T67D4 1724:239 JLINK_ExecCommand("Device = AT91SAM4S8B", ...)Device "ATSAM4S8B" selected.  returns 0x00 (0000ms, 32645ms total)
T67D4 1724:239 JLINK_TIF_Select(JLINKARM_TIF_JTAG)  returns 0x00 (0001ms, 32646ms total)
T67D4 1724:240 JLINK_GetIdData(...) >0x2F8 JTAG>TotalIRLen = 4, IRPrint = 0x01 >0x30 JTAG> >0x210 JTAG> >0x70 JTAG> >0x40 JTAG> >0x40 JTAG> >0x40 JTAG> >0x48 JTAG> >0x78 JTAG> >0x40 JTAG> >0x30 JTAG> >0x40 JTAG> >0x40 JTAG> >0x30 JTAG> >0x40 JTAG> >0x48 JTAG>Found Cortex-M4 r0p1, Little endian. -- CPU_WriteMem(4 bytes @ 0xE0002000) -- CPU_ReadMem(4 bytes @ 0xE000EDF0) -- CPU_ReadMem(4 bytes @ 0xE0002000)FPUnit: 6 code (BP) slots and 2 literal slots -- CPU_ReadMem(4 bytes @ 0xE000EDFC)
 -- CPU_ReadMem(4 bytes @ 0xE0001000) -- CPU_WriteMem(4 bytes @ 0xE0001000) -- CPU_ReadMem(4 bytes @ 0xE000ED88) -- CPU_WriteMem(4 bytes @ 0xE000ED88) -- CPU_ReadMem(4 bytes @ 0xE000ED88) -- CPU_WriteMem(4 bytes @ 0xE000ED88)CoreSight components:ROMTbl 0 @ E00FF000 -- CPU_ReadMem(16 bytes @ 0xE00FF000) -- CPU_ReadMem(16 bytes @ 0xE000EFF0) -- CPU_ReadMem(16 bytes @ 0xE000EFE0)ROMTbl 0 [0]: FFF0F000, CID: B105E00D, PID: 000BB000 SCS -- CPU_ReadMem(16 bytes @ 0xE0001FF0)
 -- CPU_ReadMem(16 bytes @ 0xE0001FE0)ROMTbl 0 [1]: FFF02000, CID: B105E00D, PID: 003BB002 DWT -- CPU_ReadMem(16 bytes @ 0xE0002FF0) -- CPU_ReadMem(16 bytes @ 0xE0002FE0)ROMTbl 0 [2]: FFF03000, CID: B105E00D, PID: 002BB003 FPB -- CPU_ReadMem(16 bytes @ 0xE0000FF0) -- CPU_ReadMem(16 bytes @ 0xE0000FE0)ROMTbl 0 [3]: FFF01000, CID: B105E00D, PID: 003BB001 ITM -- CPU_ReadMem(16 bytes @ 0xE00FF010) -- CPU_ReadMem(16 bytes @ 0xE0040FF0) -- CPU_ReadMem(16 bytes @ 0xE0040FE0)
ROMTbl 0 [4]: FFF41000, CID: B105900D, PID: 000BB9A1 TPIU ScanLen=4 NumDevices=1 aId[0]=0x4BA00477 aIrRead[0]=0 aScanLen[0]=0 aScanRead[0]=0 (0031ms, 32677ms total)
T67D4 1724:271 JLINK_ConfigJTAG(IRPre = 0, DRPre = 0) (0000ms, 32677ms total)
T67D4 1724:271 JLINK_SetSpeed(0) >0x2F8 JTAG>TotalIRLen = 4, IRPrint = 0x01 >0x30 JTAG> >0x210 JTAG> >0x70 JTAG> >0x40 JTAG> >0x40 JTAG> >0x40 JTAG> >0x48 JTAG> >0x78 JTAG> >0x40 JTAG> >0x30 JTAG> >0x40 JTAG> >0x40 JTAG> >0x30 JTAG> >0x40 JTAG> >0x48 JTAG>Found Cortex-M4 r0p1, Little endian. -- CPU_WriteMem(4 bytes @ 0xE0002000) -- CPU_ReadMem(4 bytes @ 0xE000EDF0) -- CPU_ReadMem(4 bytes @ 0xE0002000)FPUnit: 6 code (BP) slots and 2 literal slots -- CPU_ReadMem(4 bytes @ 0xE000EDFC)
 -- CPU_ReadMem(4 bytes @ 0xE0001000) -- CPU_WriteMem(4 bytes @ 0xE0001000) -- CPU_ReadMem(4 bytes @ 0xE000ED88) -- CPU_WriteMem(4 bytes @ 0xE000ED88) -- CPU_ReadMem(4 bytes @ 0xE000ED88) -- CPU_WriteMem(4 bytes @ 0xE000ED88)CoreSight components:ROMTbl 0 @ E00FF000 -- CPU_ReadMem(16 bytes @ 0xE00FF000) -- CPU_ReadMem(16 bytes @ 0xE000EFF0) -- CPU_ReadMem(16 bytes @ 0xE000EFE0)ROMTbl 0 [0]: FFF0F000, CID: B105E00D, PID: 000BB000 SCS -- CPU_ReadMem(16 bytes @ 0xE0001FF0)
 -- CPU_ReadMem(16 bytes @ 0xE0001FE0)ROMTbl 0 [1]: FFF02000, CID: B105E00D, PID: 003BB002 DWT -- CPU_ReadMem(16 bytes @ 0xE0002FF0) -- CPU_ReadMem(16 bytes @ 0xE0002FE0)ROMTbl 0 [2]: FFF03000, CID: B105E00D, PID: 002BB003 FPB -- CPU_ReadMem(16 bytes @ 0xE0000FF0) -- CPU_ReadMem(16 bytes @ 0xE0000FE0)ROMTbl 0 [3]: FFF01000, CID: B105E00D, PID: 003BB001 ITM -- CPU_ReadMem(16 bytes @ 0xE00FF010) -- CPU_ReadMem(16 bytes @ 0xE0040FF0) -- CPU_ReadMem(16 bytes @ 0xE0040FE0)
ROMTbl 0 [4]: FFF41000, CID: B105900D, PID: 000BB9A1 TPIU >0x30 JTAG> (0027ms, 32704ms total)
T67D4 1724:298 JLINK_ResetPullsRESET(OFF) (0000ms, 32704ms total)
T67D4 1724:298 JLINK_Connect() >0x2F8 JTAG>TotalIRLen = 4, IRPrint = 0x01 >0x30 JTAG> >0x210 JTAG> >0x70 JTAG> >0x40 JTAG> >0x40 JTAG> >0x40 JTAG> >0x48 JTAG> >0x78 JTAG> >0x40 JTAG> >0x30 JTAG> >0x40 JTAG> >0x40 JTAG> >0x30 JTAG> >0x40 JTAG> >0x48 JTAG>Found Cortex-M4 r0p1, Little endian. -- CPU_WriteMem(4 bytes @ 0xE0002000) -- CPU_ReadMem(4 bytes @ 0xE000EDF0) -- CPU_ReadMem(4 bytes @ 0xE0002000)FPUnit: 6 code (BP) slots and 2 literal slots -- CPU_ReadMem(4 bytes @ 0xE000EDFC)
 -- CPU_ReadMem(4 bytes @ 0xE0001000) -- CPU_WriteMem(4 bytes @ 0xE0001000) -- CPU_ReadMem(4 bytes @ 0xE000ED88) -- CPU_WriteMem(4 bytes @ 0xE000ED88) -- CPU_ReadMem(4 bytes @ 0xE000ED88) -- CPU_WriteMem(4 bytes @ 0xE000ED88)CoreSight components:ROMTbl 0 @ E00FF000 -- CPU_ReadMem(16 bytes @ 0xE00FF000) -- CPU_ReadMem(16 bytes @ 0xE000EFF0) -- CPU_ReadMem(16 bytes @ 0xE000EFE0)ROMTbl 0 [0]: FFF0F000, CID: B105E00D, PID: 000BB000 SCS -- CPU_ReadMem(16 bytes @ 0xE0001FF0)
 -- CPU_ReadMem(16 bytes @ 0xE0001FE0)ROMTbl 0 [1]: FFF02000, CID: B105E00D, PID: 003BB002 DWT -- CPU_ReadMem(16 bytes @ 0xE0002FF0) -- CPU_ReadMem(16 bytes @ 0xE0002FE0)ROMTbl 0 [2]: FFF03000, CID: B105E00D, PID: 002BB003 FPB -- CPU_ReadMem(16 bytes @ 0xE0000FF0) -- CPU_ReadMem(16 bytes @ 0xE0000FE0)ROMTbl 0 [3]: FFF01000, CID: B105E00D, PID: 003BB001 ITM -- CPU_ReadMem(16 bytes @ 0xE00FF010) -- CPU_ReadMem(16 bytes @ 0xE0040FF0) -- CPU_ReadMem(16 bytes @ 0xE0040FE0)
ROMTbl 0 [4]: FFF41000, CID: B105900D, PID: 000BB9A1 TPIU  returns 0x00 (0016ms, 32720ms total)
T67D4 1724:314 JLINK_GetDebugInfo(0x100) -- Value=0xE00FF003  returns 0x00 (0000ms, 32720ms total)
T67D4 1724:314 JLINK_ReadMem (0xE00FFFF0, 0x0010 Bytes, ...) -- CPU is running -- CPU_ReadMem(16 bytes @ 0xE00FFFF0) - Data: 0D 00 00 00 10 00 00 00 05 00 00 00 B1 00 00 00  returns 0x00 (0000ms, 32720ms total)
T67D4 1724:314 JLINK_ReadMem (0xE00FFFD0, 0x0020 Bytes, ...) -- CPU is running -- CPU_ReadMem(32 bytes @ 0xE00FFFD0) - Data: 04 00 00 00 00 00 00 00 00 00 00 00 00 00 00 00 ...  returns 0x00 (0001ms, 32721ms total)
T67D4 1724:315 JLINK_ReadMemU32(0xE00FF000, 0x0001 Items, ...) -- CPU is running -- CPU_ReadMem(4 bytes @ 0xE00FF000) - Data: 03 F0 F0 FF  returns 0x01 (0001ms, 32722ms total)
T67D4 1724:316 JLINK_ReadMem (0xE000EFF0, 0x0010 Bytes, ...) -- CPU is running -- CPU_ReadMem(16 bytes @ 0xE000EFF0) - Data: 0D 00 00 00 E0 00 00 00 05 00 00 00 B1 00 00 00  returns 0x00 (0000ms, 32722ms total)
T67D4 1724:316 JLINK_ReadMem (0xE000EFD0, 0x0020 Bytes, ...) -- CPU is running -- CPU_ReadMem(32 bytes @ 0xE000EFD0) - Data: 04 00 00 00 00 00 00 00 00 00 00 00 00 00 00 00 ...  returns 0x00 (0001ms, 32723ms total)
T67D4 1724:317 JLINK_ReadMemU32(0xE00FF004, 0x0001 Items, ...) -- CPU is running -- CPU_ReadMem(4 bytes @ 0xE00FF004) - Data: 03 20 F0 FF  returns 0x01 (0000ms, 32723ms total)
T67D4 1724:317 JLINK_ReadMem (0xE0001FF0, 0x0010 Bytes, ...) -- CPU is running -- CPU_ReadMem(16 bytes @ 0xE0001FF0) - Data: 0D 00 00 00 E0 00 00 00 05 00 00 00 B1 00 00 00  returns 0x00 (0001ms, 32724ms total)
T67D4 1724:318 JLINK_ReadMem (0xE0001FD0, 0x0020 Bytes, ...) -- CPU is running -- CPU_ReadMem(32 bytes @ 0xE0001FD0) - Data: 04 00 00 00 00 00 00 00 00 00 00 00 00 00 00 00 ...  returns 0x00 (0001ms, 32725ms total)
T67D4 1724:319 JLINK_ReadMemU32(0xE00FF008, 0x0001 Items, ...) -- CPU is running -- CPU_ReadMem(4 bytes @ 0xE00FF008) - Data: 03 30 F0 FF  returns 0x01 (0000ms, 32725ms total)
T67D4 1724:319 JLINK_ReadMem (0xE0002FF0, 0x0010 Bytes, ...) -- CPU is running -- CPU_ReadMem(16 bytes @ 0xE0002FF0) - Data: 0D 00 00 00 E0 00 00 00 05 00 00 00 B1 00 00 00  returns 0x00 (0001ms, 32726ms total)
T67D4 1724:320 JLINK_ReadMem (0xE0002FD0, 0x0020 Bytes, ...) -- CPU is running -- CPU_ReadMem(32 bytes @ 0xE0002FD0) - Data: 04 00 00 00 00 00 00 00 00 00 00 00 00 00 00 00 ...  returns 0x00 (0000ms, 32726ms total)
T67D4 1724:320 JLINK_ReadMemU32(0xE00FF00C, 0x0001 Items, ...) -- CPU is running -- CPU_ReadMem(4 bytes @ 0xE00FF00C) - Data: 03 10 F0 FF  returns 0x01 (0001ms, 32727ms total)
T67D4 1724:321 JLINK_ReadMem (0xE0000FF0, 0x0010 Bytes, ...) -- CPU is running -- CPU_ReadMem(16 bytes @ 0xE0000FF0) - Data: 0D 00 00 00 E0 00 00 00 05 00 00 00 B1 00 00 00  returns 0x00 (0000ms, 32727ms total)
T67D4 1724:321 JLINK_ReadMem (0xE0000FD0, 0x0020 Bytes, ...) -- CPU is running -- CPU_ReadMem(32 bytes @ 0xE0000FD0) - Data: 04 00 00 00 00 00 00 00 00 00 00 00 00 00 00 00 ...  returns 0x00 (0001ms, 32728ms total)
T67D4 1724:322 JLINK_ReadMemU32(0xE00FF010, 0x0001 Items, ...) -- CPU is running -- CPU_ReadMem(4 bytes @ 0xE00FF010) - Data: 03 10 F4 FF  returns 0x01 (0000ms, 32728ms total)
T67D4 1724:322 JLINK_ReadMem (0xE0040FF0, 0x0010 Bytes, ...) -- CPU is running -- CPU_ReadMem(16 bytes @ 0xE0040FF0) - Data: 0D 00 00 00 90 00 00 00 05 00 00 00 B1 00 00 00  returns 0x00 (0001ms, 32729ms total)
T67D4 1724:323 JLINK_ReadMem (0xE0040FD0, 0x0020 Bytes, ...) -- CPU is running -- CPU_ReadMem(32 bytes @ 0xE0040FD0) - Data: 04 00 00 00 00 00 00 00 00 00 00 00 00 00 00 00 ...  returns 0x00 (0001ms, 32730ms total)
T67D4 1724:324 JLINK_ReadMemU32(0xE00FF014, 0x0001 Items, ...) -- CPU is running -- CPU_ReadMem(4 bytes @ 0xE00FF014) - Data: 02 20 F4 FF  returns 0x01 (0000ms, 32730ms total)
T67D4 1724:324 JLINK_ReadMemU32(0xE00FF018, 0x0001 Items, ...) -- CPU is running -- CPU_ReadMem(4 bytes @ 0xE00FF018) - Data: 00 00 00 00  returns 0x01 (0001ms, 32731ms total)
T67D4 1724:325 JLINK_ReadMem (0xE0001000, 0x0004 Bytes, ...) -- CPU is running -- CPU_ReadMem(4 bytes @ 0xE0001000) - Data: 01 00 00 40  returns 0x00 (0000ms, 32731ms total)
T67D4 1724:325 JLINK_ReadMem (0xE0001000, 0x0004 Bytes, ...) -- CPU is running -- CPU_ReadMem(4 bytes @ 0xE0001000) - Data: 01 00 00 40  returns 0x00 (0001ms, 32732ms total)
T67D4 1724:326 JLINK_ReadMem (0xE0001028, 0x0004 Bytes, ...) -- CPU is running -- CPU_ReadMem(4 bytes @ 0xE0001028) - Data: 00 00 00 00  returns 0x00 (0000ms, 32732ms total)
T67D4 1724:326 JLINK_WriteMem(0xE0001028, 0x0004 Bytes, ...) - Data: 00 01 00 00 -- CPU is running -- CPU_WriteMem(4 bytes @ 0xE0001028)  returns 0x04 (0001ms, 32733ms total)
T67D4 1724:327 JLINK_ReadMem (0xE0001028, 0x0004 Bytes, ...) -- CPU is running -- CPU_ReadMem(4 bytes @ 0xE0001028) - Data: 00 00 00 00  returns 0x00 (0000ms, 32733ms total)
T67D4 1724:327 JLINK_ReadMem (0xE0001038, 0x0004 Bytes, ...) -- CPU is running -- CPU_ReadMem(4 bytes @ 0xE0001038) - Data: 00 02 00 00  returns 0x00 (0001ms, 32734ms total)
T67D4 1724:328 JLINK_WriteMem(0xE0001038, 0x0004 Bytes, ...) - Data: 00 03 00 00 -- CPU is running -- CPU_WriteMem(4 bytes @ 0xE0001038)  returns 0x04 (0000ms, 32734ms total)
T67D4 1724:328 JLINK_ReadMem (0xE0001038, 0x0004 Bytes, ...) -- CPU is running -- CPU_ReadMem(4 bytes @ 0xE0001038) - Data: 00 03 00 00  returns 0x00 (0000ms, 32734ms total)
T67D4 1724:328 JLINK_ReadMem (0xE0001048, 0x0004 Bytes, ...) -- CPU is running -- CPU_ReadMem(4 bytes @ 0xE0001048) - Data: 00 00 00 00  returns 0x00 (0001ms, 32735ms total)
T67D4 1724:329 JLINK_WriteMem(0xE0001048, 0x0004 Bytes, ...) - Data: 00 01 00 00 -- CPU is running -- CPU_WriteMem(4 bytes @ 0xE0001048)  returns 0x04 (0000ms, 32735ms total)
T67D4 1724:329 JLINK_ReadMem (0xE0001048, 0x0004 Bytes, ...) -- CPU is running -- CPU_ReadMem(4 bytes @ 0xE0001048) - Data: 00 00 00 00  returns 0x00 (0001ms, 32736ms total)
T67D4 1724:330 JLINK_ReadMem (0xE0001058, 0x0004 Bytes, ...) -- CPU is running -- CPU_ReadMem(4 bytes @ 0xE0001058) - Data: 00 00 00 00  returns 0x00 (0000ms, 32736ms total)
T67D4 1724:330 JLINK_WriteMem(0xE0001058, 0x0004 Bytes, ...) - Data: 00 01 00 00 -- CPU is running -- CPU_WriteMem(4 bytes @ 0xE0001058)  returns 0x04 (0001ms, 32737ms total)
T67D4 1724:331 JLINK_ReadMem (0xE0001058, 0x0004 Bytes, ...) -- CPU is running -- CPU_ReadMem(4 bytes @ 0xE0001058) - Data: 00 00 00 00  returns 0x00 (0000ms, 32737ms total)
T67D4 1724:331 JLINK_ReadMem (0xE0001024, 0x0004 Bytes, ...) -- CPU is running -- CPU_ReadMem(4 bytes @ 0xE0001024) - Data: 00 00 00 00  returns 0x00 (0001ms, 32738ms total)
T67D4 1724:332 JLINK_WriteMem(0xE0001024, 0x0004 Bytes, ...) - Data: 1F 00 00 00 -- CPU is running -- CPU_WriteMem(4 bytes @ 0xE0001024)  returns 0x04 (0000ms, 32738ms total)
T67D4 1724:332 JLINK_ReadMem (0xE0001024, 0x0004 Bytes, ...) -- CPU is running -- CPU_ReadMem(4 bytes @ 0xE0001024) - Data: 0F 00 00 00  returns 0x00 (0001ms, 32739ms total)
T67D4 1724:333 JLINK_ReadMem (0xE0001034, 0x0004 Bytes, ...) -- CPU is running -- CPU_ReadMem(4 bytes @ 0xE0001034) - Data: 00 00 00 00  returns 0x00 (0000ms, 32739ms total)
T67D4 1724:333 JLINK_WriteMem(0xE0001034, 0x0004 Bytes, ...) - Data: 1F 00 00 00 -- CPU is running -- CPU_WriteMem(4 bytes @ 0xE0001034)  returns 0x04 (0001ms, 32740ms total)
T67D4 1724:334 JLINK_ReadMem (0xE0001034, 0x0004 Bytes, ...) -- CPU is running -- CPU_ReadMem(4 bytes @ 0xE0001034) - Data: 0F 00 00 00  returns 0x00 (0000ms, 32740ms total)
T67D4 1724:334 JLINK_ReadMem (0xE0001044, 0x0004 Bytes, ...) -- CPU is running -- CPU_ReadMem(4 bytes @ 0xE0001044) - Data: 00 00 00 00  returns 0x00 (0001ms, 32741ms total)
T67D4 1724:335 JLINK_WriteMem(0xE0001044, 0x0004 Bytes, ...) - Data: 1F 00 00 00 -- CPU is running -- CPU_WriteMem(4 bytes @ 0xE0001044)  returns 0x04 (0000ms, 32741ms total)
T67D4 1724:335 JLINK_ReadMem (0xE0001044, 0x0004 Bytes, ...) -- CPU is running -- CPU_ReadMem(4 bytes @ 0xE0001044) - Data: 0F 00 00 00  returns 0x00 (0000ms, 32741ms total)
T67D4 1724:335 JLINK_ReadMem (0xE0001054, 0x0004 Bytes, ...) -- CPU is running -- CPU_ReadMem(4 bytes @ 0xE0001054) - Data: 00 00 00 00  returns 0x00 (0001ms, 32742ms total)
T67D4 1724:336 JLINK_WriteMem(0xE0001054, 0x0004 Bytes, ...) - Data: 1F 00 00 00 -- CPU is running -- CPU_WriteMem(4 bytes @ 0xE0001054)  returns 0x04 (0000ms, 32742ms total)
T67D4 1724:336 JLINK_ReadMem (0xE0001054, 0x0004 Bytes, ...) -- CPU is running -- CPU_ReadMem(4 bytes @ 0xE0001054) - Data: 0F 00 00 00  returns 0x00 (0001ms, 32743ms total)
T67D4 1724:337 JLINK_ReadMem (0xE0001028, 0x0004 Bytes, ...) -- CPU is running -- CPU_ReadMem(4 bytes @ 0xE0001028) - Data: 00 00 00 00  returns 0x00 (0000ms, 32743ms total)
T67D4 1724:337 JLINK_ReadMem (0xE0001038, 0x0004 Bytes, ...) -- CPU is running -- CPU_ReadMem(4 bytes @ 0xE0001038) - Data: 00 03 00 00  returns 0x00 (0001ms, 32744ms total)
T67D4 1724:338 JLINK_ReadMem (0xE0001048, 0x0004 Bytes, ...) -- CPU is running -- CPU_ReadMem(4 bytes @ 0xE0001048) - Data: 00 00 00 00  returns 0x00 (0000ms, 32744ms total)
T67D4 1724:338 JLINK_ReadMem (0xE0001058, 0x0004 Bytes, ...) -- CPU is running -- CPU_ReadMem(4 bytes @ 0xE0001058) - Data: 00 00 00 00  returns 0x00 (0001ms, 32745ms total)
T67D4 1724:339 JLINK_WriteMem(0xE0001020, 0x0004 Bytes, ...) - Data: 00 00 00 00 -- CPU is running -- CPU_WriteMem(4 bytes @ 0xE0001020)  returns 0x04 (0000ms, 32745ms total)
T67D4 1724:339 JLINK_WriteMem(0xE0001024, 0x0004 Bytes, ...) - Data: 00 00 00 00 -- CPU is running -- CPU_WriteMem(4 bytes @ 0xE0001024)  returns 0x04 (0001ms, 32746ms total)
T67D4 1724:340 JLINK_WriteMem(0xE0001028, 0x0004 Bytes, ...) - Data: 00 00 00 00 -- CPU is running -- CPU_WriteMem(4 bytes @ 0xE0001028)  returns 0x04 (0000ms, 32746ms total)
T67D4 1724:340 JLINK_WriteMem(0xE0001030, 0x0004 Bytes, ...) - Data: 00 00 00 00 -- CPU is running -- CPU_WriteMem(4 bytes @ 0xE0001030)  returns 0x04 (0000ms, 32746ms total)
T67D4 1724:340 JLINK_WriteMem(0xE0001034, 0x0004 Bytes, ...) - Data: 00 00 00 00 -- CPU is running -- CPU_WriteMem(4 bytes @ 0xE0001034)  returns 0x04 (0001ms, 32747ms total)
T67D4 1724:341 JLINK_WriteMem(0xE0001038, 0x0004 Bytes, ...) - Data: 00 00 00 00 -- CPU is running -- CPU_WriteMem(4 bytes @ 0xE0001038)  returns 0x04 (0000ms, 32747ms total)
T67D4 1724:341 JLINK_WriteMem(0xE0001040, 0x0004 Bytes, ...) - Data: 00 00 00 00 -- CPU is running -- CPU_WriteMem(4 bytes @ 0xE0001040)  returns 0x04 (0001ms, 32748ms total)
T67D4 1724:342 JLINK_WriteMem(0xE0001044, 0x0004 Bytes, ...) - Data: 00 00 00 00 -- CPU is running -- CPU_WriteMem(4 bytes @ 0xE0001044)  returns 0x04 (0000ms, 32748ms total)
T67D4 1724:342 JLINK_WriteMem(0xE0001048, 0x0004 Bytes, ...) - Data: 00 00 00 00 -- CPU is running -- CPU_WriteMem(4 bytes @ 0xE0001048)  returns 0x04 (0000ms, 32748ms total)
T67D4 1724:342 JLINK_WriteMem(0xE0001050, 0x0004 Bytes, ...) - Data: 00 00 00 00 -- CPU is running -- CPU_WriteMem(4 bytes @ 0xE0001050)  returns 0x04 (0001ms, 32749ms total)
T67D4 1724:343 JLINK_WriteMem(0xE0001054, 0x0004 Bytes, ...) - Data: 00 00 00 00 -- CPU is running -- CPU_WriteMem(4 bytes @ 0xE0001054)  returns 0x04 (0000ms, 32749ms total)
T67D4 1724:343 JLINK_WriteMem(0xE0001058, 0x0004 Bytes, ...) - Data: 00 00 00 00 -- CPU is running -- CPU_WriteMem(4 bytes @ 0xE0001058)  returns 0x04 (0001ms, 32750ms total)
T67D4 1724:344 JLINK_Halt()  returns 0x00 (0003ms, 32753ms total)
T5CC8 1724:359 JLINK_IsHalted()  returns TRUE (0000ms, 32753ms total)
T5CC8 1724:359 JLINK_GetMOEs(...) -- CPU_ReadMem(4 bytes @ 0xE000ED30) -- CPU_WriteMem(4 bytes @ 0xE000ED30)  returns 0x01 (0001ms, 32754ms total)
T5CC8 1724:360 JLINK_ReadReg(R15 (PC))  returns 0x004006E2 (0000ms, 32754ms total)
T67D4 1724:363 JLINK_JTAG_GetDeviceID(DeviceIndex = 0)  returns 0x4BA00477 (0000ms, 32754ms total)
T67D4 1724:363 JLINK_ReadMemU32(0x400E0740, 0x0001 Items, ...) -- CPU_ReadMem(4 bytes @ 0x400E0740) - Data: E0 0A 9C 28  returns 0x01 (0001ms, 32755ms total)
T5CC8 1724:382 JLINK_IsHalted()  returns TRUE (0000ms, 32755ms total)
T5B54 1724:415 JLINK_Halt()  returns 0x00 (0000ms, 32755ms total)
T5B54 1724:415 JLINK_ReadReg(R15 (PC))  returns 0x004006E2 (0001ms, 32756ms total)
T5B54 1724:416 JLINK_ReadReg(R13 (SP))  returns 0x200059A0 (0000ms, 32756ms total)
T5B54 1724:417 JLINK_ReadMemHW(0x00400600, 0x0200 Bytes, ...) -- CPU_ReadMem(512 bytes @ 0x00400600) - Data: 30 1A 00 20 D4 1C 00 20 6C 1F 00 20 34 1A 00 20 ...  returns 0x00 (0003ms, 32759ms total)
T5B54 1724:420 JLINK_ReadReg(R0)  returns 0x00000000 (0001ms, 32760ms total)
T5B54 1724:421 JLINK_ReadReg(R1)  returns 0x00000001 (0000ms, 32760ms total)
T5B54 1724:421 JLINK_ReadReg(R2)  returns 0x00000000 (0000ms, 32760ms total)
T5B54 1724:421 JLINK_ReadReg(R3)  returns 0x00000001 (0000ms, 32760ms total)
T5B54 1724:421 JLINK_ReadReg(R4)  returns 0x200000D0 (0000ms, 32760ms total)
T5B54 1724:421 JLINK_ReadReg(R5)  returns 0x20001CC4 (0000ms, 32760ms total)
T5B54 1724:421 JLINK_ReadReg(R6)  returns 0x20001CD0 (0000ms, 32760ms total)
T5B54 1724:421 JLINK_ReadReg(R7)  returns 0x00000000 (0000ms, 32760ms total)
T5B54 1724:421 JLINK_ReadReg(R8)  returns 0x00000000 (0000ms, 32760ms total)
T5B54 1724:421 JLINK_ReadReg(R9)  returns 0x00000000 (0000ms, 32760ms total)
T5B54 1724:421 JLINK_ReadReg(R10)  returns 0x1CC216EB (0000ms, 32760ms total)
T5B54 1724:421 JLINK_ReadReg(R11)  returns 0x20001168 (0000ms, 32760ms total)
T5B54 1724:421 JLINK_ReadReg(R12)  returns 0x00000026 (0000ms, 32760ms total)
T5B54 1724:421 JLINK_ReadReg(R13 (SP))  returns 0x200059A0 (0000ms, 32760ms total)
T5B54 1724:421 JLINK_ReadReg(R14)  returns 0x00400751 (0000ms, 32760ms total)
T5B54 1724:421 JLINK_ReadReg(R15 (PC))  returns 0x004006E2 (0000ms, 32760ms total)
T5B54 1724:421 JLINK_ReadReg(XPSR)  returns 0x21010000 (0000ms, 32760ms total)
T5B54 1724:421 JLINK_ReadReg(MSP)  returns 0x200059A0 (0000ms, 32760ms total)
T5B54 1724:421 JLINK_ReadReg(PSP)  returns 0x11558104 (0000ms, 32760ms total)
T5B54 1724:421 JLINK_ReadReg(APSR)  returns 0x20010000 (0000ms, 32760ms total)
T5B54 1724:421 JLINK_ReadReg(EPSR)  returns 0x01000000 (0000ms, 32760ms total)
T5B54 1724:421 JLINK_ReadReg(IPSR)  returns 0x00000000 (0000ms, 32760ms total)
T5B54 1724:421 JLINK_ReadReg(PRIMASK)  returns 0x00000000 (0000ms, 32760ms total)
T5B54 1724:421 JLINK_ReadReg(BASEPRI)  returns 0x00000000 (0000ms, 32760ms total)
T5B54 1724:421 JLINK_ReadReg(FAULTMASK)  returns 0x00000000 (0000ms, 32760ms total)
T5B54 1724:421 JLINK_ReadReg(CONTROL)  returns 0x00000000 (0000ms, 32760ms total)
T5B54 1724:494 JLINK_ReadReg(R0)  returns 0x00000000 (0000ms, 32760ms total)
T5B54 1724:494 JLINK_ReadReg(R1)  returns 0x00000001 (0000ms, 32760ms total)
T5B54 1724:494 JLINK_ReadReg(R2)  returns 0x00000000 (0000ms, 32760ms total)
T5B54 1724:494 JLINK_ReadReg(R3)  returns 0x00000001 (0000ms, 32760ms total)
T5B54 1724:494 JLINK_ReadReg(R4)  returns 0x200000D0 (0000ms, 32760ms total)
T5B54 1724:494 JLINK_ReadReg(R5)  returns 0x20001CC4 (0000ms, 32760ms total)
T5B54 1724:494 JLINK_ReadReg(R6)  returns 0x20001CD0 (0000ms, 32760ms total)
T5B54 1724:494 JLINK_ReadReg(R7)  returns 0x00000000 (0000ms, 32760ms total)
T5B54 1724:494 JLINK_ReadReg(R8)  returns 0x00000000 (0000ms, 32760ms total)
T5B54 1724:494 JLINK_ReadReg(R9)  returns 0x00000000 (0000ms, 32760ms total)
T5B54 1724:494 JLINK_ReadReg(R10)  returns 0x1CC216EB (0000ms, 32760ms total)
T5B54 1724:494 JLINK_ReadReg(R11)  returns 0x20001168 (0000ms, 32760ms total)
T5B54 1724:494 JLINK_ReadReg(R12)  returns 0x00000026 (0000ms, 32760ms total)
T5B54 1724:494 JLINK_ReadReg(R13 (SP))  returns 0x200059A0 (0000ms, 32760ms total)
T5B54 1724:494 JLINK_ReadReg(R14)  returns 0x00400751 (0000ms, 32760ms total)
T5B54 1724:494 JLINK_ReadReg(R15 (PC))  returns 0x004006E2 (0000ms, 32760ms total)
T5B54 1724:494 JLINK_ReadReg(XPSR)  returns 0x21010000 (0000ms, 32760ms total)
T5B54 1724:494 JLINK_ReadReg(MSP)  returns 0x200059A0 (0000ms, 32760ms total)
T5B54 1724:494 JLINK_ReadReg(PSP)  returns 0x11558104 (0000ms, 32760ms total)
T5B54 1724:494 JLINK_ReadReg(APSR)  returns 0x20010000 (0000ms, 32760ms total)
T5B54 1724:494 JLINK_ReadReg(EPSR)  returns 0x01000000 (0000ms, 32760ms total)
T5B54 1724:494 JLINK_ReadReg(IPSR)  returns 0x00000000 (0000ms, 32760ms total)
T5B54 1724:494 JLINK_ReadReg(PRIMASK)  returns 0x00000000 (0000ms, 32760ms total)
T5B54 1724:494 JLINK_ReadReg(BASEPRI)  returns 0x00000000 (0000ms, 32760ms total)
T5B54 1724:494 JLINK_ReadReg(FAULTMASK)  returns 0x00000000 (0000ms, 32760ms total)
T5B54 1724:494 JLINK_ReadReg(CONTROL)  returns 0x00000000 (0000ms, 32760ms total)
T5B54 1724:539 JLINK_ReadMem (0x200059BC, 0x0004 Bytes, ...) -- CPU_ReadMem(64 bytes @ 0x20005980) -- Updating C cache (64 bytes @ 0x20005980) -- Read from C cache (4 bytes @ 0x200059BC) - Data: 51 07 40 00  returns 0x00 (0001ms, 32761ms total)
T5B54 1724:541 JLINK_ReadMem (0x200059BC, 0x0004 Bytes, ...) -- Read from C cache (4 bytes @ 0x200059BC) - Data: 51 07 40 00  returns 0x00 (0000ms, 32761ms total)
T5B54 1724:541 JLINK_ReadMem (0x200059C4, 0x0004 Bytes, ...) -- CPU_ReadMem(64 bytes @ 0x200059C0) -- Updating C cache (64 bytes @ 0x200059C0) -- Read from C cache (4 bytes @ 0x200059C4) - Data: 07 10 40 00  returns 0x00 (0001ms, 32762ms total)
T5B54 1724:553 JLINK_ReadMem (0x200059C4, 0x0004 Bytes, ...) -- Read from C cache (4 bytes @ 0x200059C4) - Data: 07 10 40 00  returns 0x00 (0000ms, 32762ms total)
T5B54 1724:553 JLINK_ReadMem (0x200059BC, 0x0004 Bytes, ...) -- Read from C cache (4 bytes @ 0x200059BC) - Data: 51 07 40 00  returns 0x00 (0000ms, 32762ms total)
T5B54 1724:553 JLINK_ReadMem (0x200059C4, 0x0004 Bytes, ...) -- Read from C cache (4 bytes @ 0x200059C4) - Data: 07 10 40 00  returns 0x00 (0000ms, 32762ms total)
T5B54 1724:553 JLINK_ReadMemHW(0x00401000, 0x0200 Bytes, ...) -- CPU_ReadMem(512 bytes @ 0x00401000) - Data: 10 BD 03 4B 98 47 20 70 10 BD 00 BF 89 1F 00 20 ...  returns 0x00 (0003ms, 32765ms total)
T5B54 1724:557 JLINK_ReadMem (0x200059D4, 0x0004 Bytes, ...) -- Read from C cache (4 bytes @ 0x200059D4) - Data: 00 00 00 00  returns 0x00 (0000ms, 32765ms total)
T5B54 1724:557 JLINK_ReadMem (0x200059D4, 0x0004 Bytes, ...) -- Read from C cache (4 bytes @ 0x200059D4) - Data: 00 00 00 00  returns 0x00 (0000ms, 32765ms total)
T5B54 1724:558 JLINK_ReadMem (0x200059C4, 0x0004 Bytes, ...) -- Read from C cache (4 bytes @ 0x200059C4) - Data: 07 10 40 00  returns 0x00 (0000ms, 32765ms total)
T5B54 1724:558 JLINK_ReadMem (0x200059D4, 0x0004 Bytes, ...) -- Read from C cache (4 bytes @ 0x200059D4) - Data: 00 00 00 00  returns 0x00 (0000ms, 32765ms total)
T5B54 1724:558 JLINK_ReadMem (0x200059BC, 0x0004 Bytes, ...) -- Read from C cache (4 bytes @ 0x200059BC) - Data: 51 07 40 00  returns 0x00 (0000ms, 32765ms total)
T5B54 1724:558 JLINK_ReadMem (0x200059C4, 0x0004 Bytes, ...) -- Read from C cache (4 bytes @ 0x200059C4) - Data: 07 10 40 00  returns 0x00 (0000ms, 32765ms total)
T5B54 1724:559 JLINK_ReadMem (0x200059D4, 0x0004 Bytes, ...) -- Read from C cache (4 bytes @ 0x200059D4) - Data: 00 00 00 00  returns 0x00 (0000ms, 32765ms total)
T5B54 1724:559 JLINK_ReadMem (0x20001168, 0x0004 Bytes, ...) -- CPU_ReadMem(64 bytes @ 0x20001140) -- Updating C cache (64 bytes @ 0x20001140) -- Read from C cache (4 bytes @ 0x20001168) - Data: 00 00 00 00  returns 0x00 (0001ms, 32766ms total)
T5CC8 1724:583 JLINK_IsHalted()  returns TRUE (0000ms, 32766ms total)
T67D4 1724:748 JLINK_ReadMem (0x40000000, 0x006C Bytes, ...) -- CPU_ReadMem(108 bytes @ 0x40000000) - Data: 00 00 00 00 00 00 00 00 00 00 00 00 00 00 00 00 ...  returns 0x00 (0001ms, 32767ms total)
T67D4 1724:751 JLINK_ReadMem (0x40000000, 0x006C Bytes, ...) -- CPU_ReadMem(108 bytes @ 0x40000000) - Data: 00 00 00 00 00 00 00 00 00 00 00 00 00 00 00 00 ...  returns 0x00 (0002ms, 32769ms total)
T5CC8 1724:783 JLINK_IsHalted()  returns TRUE (0000ms, 32769ms total)
T67D4 1724:785 JLINK_GetDebugInfo(0x100) -- Value=0xE00FF003  returns 0x00 (0000ms, 32769ms total)
T67D4 1724:785 JLINK_ReadMem (0xE00FFFF0, 0x0010 Bytes, ...) -- CPU_ReadMem(16 bytes @ 0xE00FFFF0) - Data: 0D 00 00 00 10 00 00 00 05 00 00 00 B1 00 00 00  returns 0x00 (0001ms, 32770ms total)
T67D4 1724:786 JLINK_ReadMem (0xE00FFFD0, 0x0020 Bytes, ...) -- CPU_ReadMem(32 bytes @ 0xE00FFFD0) - Data: 04 00 00 00 00 00 00 00 00 00 00 00 00 00 00 00 ...  returns 0x00 (0000ms, 32770ms total)
T67D4 1724:786 JLINK_ReadMemU32(0xE00FF000, 0x0001 Items, ...) -- CPU_ReadMem(4 bytes @ 0xE00FF000) - Data: 03 F0 F0 FF  returns 0x01 (0001ms, 32771ms total)
T67D4 1724:787 JLINK_ReadMem (0xE000EFF0, 0x0010 Bytes, ...) -- CPU_ReadMem(16 bytes @ 0xE000EFF0) - Data: 0D 00 00 00 E0 00 00 00 05 00 00 00 B1 00 00 00  returns 0x00 (0000ms, 32771ms total)
T67D4 1724:787 JLINK_ReadMem (0xE000EFD0, 0x0020 Bytes, ...) -- CPU_ReadMem(32 bytes @ 0xE000EFD0) - Data: 04 00 00 00 00 00 00 00 00 00 00 00 00 00 00 00 ...  returns 0x00 (0001ms, 32772ms total)
T67D4 1724:788 JLINK_ReadMemU32(0xE00FF004, 0x0001 Items, ...) -- CPU_ReadMem(4 bytes @ 0xE00FF004) - Data: 03 20 F0 FF  returns 0x01 (0001ms, 32773ms total)
T67D4 1724:789 JLINK_ReadMem (0xE0001FF0, 0x0010 Bytes, ...) -- CPU_ReadMem(16 bytes @ 0xE0001FF0) - Data: 0D 00 00 00 E0 00 00 00 05 00 00 00 B1 00 00 00  returns 0x00 (0000ms, 32773ms total)
T67D4 1724:789 JLINK_ReadMem (0xE0001FD0, 0x0020 Bytes, ...) -- CPU_ReadMem(32 bytes @ 0xE0001FD0) - Data: 04 00 00 00 00 00 00 00 00 00 00 00 00 00 00 00 ...  returns 0x00 (0001ms, 32774ms total)
T67D4 1724:790 JLINK_ReadMemU32(0xE00FF008, 0x0001 Items, ...) -- CPU_ReadMem(4 bytes @ 0xE00FF008) - Data: 03 30 F0 FF  returns 0x01 (0000ms, 32774ms total)
T67D4 1724:790 JLINK_ReadMem (0xE0002FF0, 0x0010 Bytes, ...) -- CPU_ReadMem(16 bytes @ 0xE0002FF0) - Data: 0D 00 00 00 E0 00 00 00 05 00 00 00 B1 00 00 00  returns 0x00 (0001ms, 32775ms total)
T67D4 1724:791 JLINK_ReadMem (0xE0002FD0, 0x0020 Bytes, ...) -- CPU_ReadMem(32 bytes @ 0xE0002FD0) - Data: 04 00 00 00 00 00 00 00 00 00 00 00 00 00 00 00 ...  returns 0x00 (0001ms, 32776ms total)
T67D4 1724:792 JLINK_ReadMemU32(0xE00FF00C, 0x0001 Items, ...) -- CPU_ReadMem(4 bytes @ 0xE00FF00C) - Data: 03 10 F0 FF  returns 0x01 (0000ms, 32776ms total)
T67D4 1724:792 JLINK_ReadMem (0xE0000FF0, 0x0010 Bytes, ...) -- CPU_ReadMem(16 bytes @ 0xE0000FF0) - Data: 0D 00 00 00 E0 00 00 00 05 00 00 00 B1 00 00 00  returns 0x00 (0000ms, 32776ms total)
T67D4 1724:792 JLINK_ReadMem (0xE0000FD0, 0x0020 Bytes, ...) -- CPU_ReadMem(32 bytes @ 0xE0000FD0) - Data: 04 00 00 00 00 00 00 00 00 00 00 00 00 00 00 00 ...  returns 0x00 (0001ms, 32777ms total)
T67D4 1724:793 JLINK_ReadMemU32(0xE00FF010, 0x0001 Items, ...) -- CPU_ReadMem(4 bytes @ 0xE00FF010) - Data: 03 10 F4 FF  returns 0x01 (0001ms, 32778ms total)
T67D4 1724:794 JLINK_ReadMem (0xE0040FF0, 0x0010 Bytes, ...) -- CPU_ReadMem(16 bytes @ 0xE0040FF0) - Data: 0D 00 00 00 90 00 00 00 05 00 00 00 B1 00 00 00  returns 0x00 (0001ms, 32779ms total)
T67D4 1724:795 JLINK_ReadMem (0xE0040FD0, 0x0020 Bytes, ...) -- CPU_ReadMem(32 bytes @ 0xE0040FD0) - Data: 04 00 00 00 00 00 00 00 00 00 00 00 00 00 00 00 ...  returns 0x00 (0000ms, 32779ms total)
T67D4 1724:795 JLINK_ReadMemU32(0xE00FF014, 0x0001 Items, ...) -- CPU_ReadMem(4 bytes @ 0xE00FF014) - Data: 02 20 F4 FF  returns 0x01 (0001ms, 32780ms total)
T67D4 1724:796 JLINK_ReadMemU32(0xE00FF018, 0x0001 Items, ...) -- CPU_ReadMem(4 bytes @ 0xE00FF018) - Data: 00 00 00 00  returns 0x01 (0000ms, 32780ms total)
T67D4 1724:796 JLINK_GetDebugInfo(0x100) -- Value=0xE00FF003  returns 0x00 (0000ms, 32780ms total)
T67D4 1724:796 JLINK_ReadMem (0xE00FFFF0, 0x0010 Bytes, ...) -- CPU_ReadMem(16 bytes @ 0xE00FFFF0) - Data: 0D 00 00 00 10 00 00 00 05 00 00 00 B1 00 00 00  returns 0x00 (0001ms, 32781ms total)
T67D4 1724:797 JLINK_ReadMem (0xE00FFFD0, 0x0020 Bytes, ...) -- CPU_ReadMem(32 bytes @ 0xE00FFFD0) - Data: 04 00 00 00 00 00 00 00 00 00 00 00 00 00 00 00 ...  returns 0x00 (0001ms, 32782ms total)
T67D4 1724:798 JLINK_ReadMemU32(0xE00FF000, 0x0001 Items, ...) -- CPU_ReadMem(4 bytes @ 0xE00FF000) - Data: 03 F0 F0 FF  returns 0x01 (0000ms, 32782ms total)
T67D4 1724:798 JLINK_ReadMem (0xE000EFF0, 0x0010 Bytes, ...) -- CPU_ReadMem(16 bytes @ 0xE000EFF0) - Data: 0D 00 00 00 E0 00 00 00 05 00 00 00 B1 00 00 00  returns 0x00 (0001ms, 32783ms total)
T67D4 1724:799 JLINK_ReadMem (0xE000EFD0, 0x0020 Bytes, ...) -- CPU_ReadMem(32 bytes @ 0xE000EFD0) - Data: 04 00 00 00 00 00 00 00 00 00 00 00 00 00 00 00 ...  returns 0x00 (0000ms, 32783ms total)
T67D4 1724:799 JLINK_ReadMemU32(0xE00FF004, 0x0001 Items, ...) -- CPU_ReadMem(4 bytes @ 0xE00FF004) - Data: 03 20 F0 FF  returns 0x01 (0001ms, 32784ms total)
T67D4 1724:800 JLINK_ReadMem (0xE0001FF0, 0x0010 Bytes, ...) -- CPU_ReadMem(16 bytes @ 0xE0001FF0) - Data: 0D 00 00 00 E0 00 00 00 05 00 00 00 B1 00 00 00  returns 0x00 (0000ms, 32784ms total)
T67D4 1724:800 JLINK_ReadMem (0xE0001FD0, 0x0020 Bytes, ...) -- CPU_ReadMem(32 bytes @ 0xE0001FD0) - Data: 04 00 00 00 00 00 00 00 00 00 00 00 00 00 00 00 ...  returns 0x00 (0001ms, 32785ms total)
T67D4 1724:801 JLINK_ReadMemU32(0xE00FF008, 0x0001 Items, ...) -- CPU_ReadMem(4 bytes @ 0xE00FF008) - Data: 03 30 F0 FF  returns 0x01 (0001ms, 32786ms total)
T67D4 1724:802 JLINK_ReadMem (0xE0002FF0, 0x0010 Bytes, ...) -- CPU_ReadMem(16 bytes @ 0xE0002FF0) - Data: 0D 00 00 00 E0 00 00 00 05 00 00 00 B1 00 00 00  returns 0x00 (0000ms, 32786ms total)
T67D4 1724:802 JLINK_ReadMem (0xE0002FD0, 0x0020 Bytes, ...) -- CPU_ReadMem(32 bytes @ 0xE0002FD0) - Data: 04 00 00 00 00 00 00 00 00 00 00 00 00 00 00 00 ...  returns 0x00 (0001ms, 32787ms total)
T67D4 1724:803 JLINK_ReadMemU32(0xE00FF00C, 0x0001 Items, ...) -- CPU_ReadMem(4 bytes @ 0xE00FF00C) - Data: 03 10 F0 FF  returns 0x01 (0001ms, 32788ms total)
T67D4 1724:804 JLINK_ReadMem (0xE0000FF0, 0x0010 Bytes, ...) -- CPU_ReadMem(16 bytes @ 0xE0000FF0) - Data: 0D 00 00 00 E0 00 00 00 05 00 00 00 B1 00 00 00  returns 0x00 (0000ms, 32788ms total)
T67D4 1724:804 JLINK_ReadMem (0xE0000FD0, 0x0020 Bytes, ...) -- CPU_ReadMem(32 bytes @ 0xE0000FD0) - Data: 04 00 00 00 00 00 00 00 00 00 00 00 00 00 00 00 ...  returns 0x00 (0001ms, 32789ms total)
T67D4 1724:805 JLINK_ReadMemU32(0xE00FF010, 0x0001 Items, ...) -- CPU_ReadMem(4 bytes @ 0xE00FF010) - Data: 03 10 F4 FF  returns 0x01 (0001ms, 32790ms total)
T67D4 1724:806 JLINK_ReadMem (0xE0040FF0, 0x0010 Bytes, ...) -- CPU_ReadMem(16 bytes @ 0xE0040FF0) - Data: 0D 00 00 00 90 00 00 00 05 00 00 00 B1 00 00 00  returns 0x00 (0000ms, 32790ms total)
T67D4 1724:806 JLINK_ReadMem (0xE0040FD0, 0x0020 Bytes, ...) -- CPU_ReadMem(32 bytes @ 0xE0040FD0) - Data: 04 00 00 00 00 00 00 00 00 00 00 00 00 00 00 00 ...  returns 0x00 (0001ms, 32791ms total)
T67D4 1724:807 JLINK_ReadMemU32(0xE00FF014, 0x0001 Items, ...) -- CPU_ReadMem(4 bytes @ 0xE00FF014) - Data: 02 20 F4 FF  returns 0x01 (0000ms, 32791ms total)
T67D4 1724:807 JLINK_ReadMemU32(0xE00FF018, 0x0001 Items, ...) -- CPU_ReadMem(4 bytes @ 0xE00FF018) - Data: 00 00 00 00  returns 0x01 (0001ms, 32792ms total)
T67D4 1724:808 JLINK_GetDebugInfo(0x100) -- Value=0xE00FF003  returns 0x00 (0000ms, 32792ms total)
T67D4 1724:808 JLINK_ReadMem (0xE00FFFF0, 0x0010 Bytes, ...) -- CPU_ReadMem(16 bytes @ 0xE00FFFF0) - Data: 0D 00 00 00 10 00 00 00 05 00 00 00 B1 00 00 00  returns 0x00 (0001ms, 32793ms total)
T67D4 1724:809 JLINK_ReadMem (0xE00FFFD0, 0x0020 Bytes, ...) -- CPU_ReadMem(32 bytes @ 0xE00FFFD0) - Data: 04 00 00 00 00 00 00 00 00 00 00 00 00 00 00 00 ...  returns 0x00 (0000ms, 32793ms total)
T67D4 1724:809 JLINK_ReadMemU32(0xE00FF000, 0x0001 Items, ...) -- CPU_ReadMem(4 bytes @ 0xE00FF000) - Data: 03 F0 F0 FF  returns 0x01 (0001ms, 32794ms total)
T67D4 1724:810 JLINK_ReadMem (0xE000EFF0, 0x0010 Bytes, ...) -- CPU_ReadMem(16 bytes @ 0xE000EFF0) - Data: 0D 00 00 00 E0 00 00 00 05 00 00 00 B1 00 00 00  returns 0x00 (0000ms, 32794ms total)
T67D4 1724:810 JLINK_ReadMem (0xE000EFD0, 0x0020 Bytes, ...) -- CPU_ReadMem(32 bytes @ 0xE000EFD0) - Data: 04 00 00 00 00 00 00 00 00 00 00 00 00 00 00 00 ...  returns 0x00 (0001ms, 32795ms total)
T67D4 1724:811 JLINK_ReadMemU32(0xE00FF004, 0x0001 Items, ...) -- CPU_ReadMem(4 bytes @ 0xE00FF004) - Data: 03 20 F0 FF  returns 0x01 (0000ms, 32795ms total)
T67D4 1724:811 JLINK_ReadMem (0xE0001FF0, 0x0010 Bytes, ...) -- CPU_ReadMem(16 bytes @ 0xE0001FF0) - Data: 0D 00 00 00 E0 00 00 00 05 00 00 00 B1 00 00 00  returns 0x00 (0001ms, 32796ms total)
T67D4 1724:812 JLINK_ReadMem (0xE0001FD0, 0x0020 Bytes, ...) -- CPU_ReadMem(32 bytes @ 0xE0001FD0) - Data: 04 00 00 00 00 00 00 00 00 00 00 00 00 00 00 00 ...  returns 0x00 (0001ms, 32797ms total)
T67D4 1724:813 JLINK_ReadMemU32(0xE00FF008, 0x0001 Items, ...) -- CPU_ReadMem(4 bytes @ 0xE00FF008) - Data: 03 30 F0 FF  returns 0x01 (0000ms, 32797ms total)
T67D4 1724:813 JLINK_ReadMem (0xE0002FF0, 0x0010 Bytes, ...) -- CPU_ReadMem(16 bytes @ 0xE0002FF0) - Data: 0D 00 00 00 E0 00 00 00 05 00 00 00 B1 00 00 00  returns 0x00 (0001ms, 32798ms total)
T67D4 1724:814 JLINK_ReadMem (0xE0002FD0, 0x0020 Bytes, ...) -- CPU_ReadMem(32 bytes @ 0xE0002FD0) - Data: 04 00 00 00 00 00 00 00 00 00 00 00 00 00 00 00 ...  returns 0x00 (0000ms, 32798ms total)
T67D4 1724:814 JLINK_ReadMemU32(0xE00FF00C, 0x0001 Items, ...) -- CPU_ReadMem(4 bytes @ 0xE00FF00C) - Data: 03 10 F0 FF  returns 0x01 (0001ms, 32799ms total)
T67D4 1724:815 JLINK_ReadMem (0xE0000FF0, 0x0010 Bytes, ...) -- CPU_ReadMem(16 bytes @ 0xE0000FF0) - Data: 0D 00 00 00 E0 00 00 00 05 00 00 00 B1 00 00 00  returns 0x00 (0000ms, 32799ms total)
T67D4 1724:815 JLINK_ReadMem (0xE0000FD0, 0x0020 Bytes, ...) -- CPU_ReadMem(32 bytes @ 0xE0000FD0) - Data: 04 00 00 00 00 00 00 00 00 00 00 00 00 00 00 00 ...  returns 0x00 (0001ms, 32800ms total)
T67D4 1724:816 JLINK_ReadMemU32(0xE00FF010, 0x0001 Items, ...) -- CPU_ReadMem(4 bytes @ 0xE00FF010) - Data: 03 10 F4 FF  returns 0x01 (0000ms, 32800ms total)
T67D4 1724:816 JLINK_ReadMem (0xE0040FF0, 0x0010 Bytes, ...) -- CPU_ReadMem(16 bytes @ 0xE0040FF0) - Data: 0D 00 00 00 90 00 00 00 05 00 00 00 B1 00 00 00  returns 0x00 (0001ms, 32801ms total)
T67D4 1724:817 JLINK_ReadMem (0xE0040FD0, 0x0020 Bytes, ...) -- CPU_ReadMem(32 bytes @ 0xE0040FD0) - Data: 04 00 00 00 00 00 00 00 00 00 00 00 00 00 00 00 ...  returns 0x00 (0001ms, 32802ms total)
T67D4 1724:818 JLINK_ReadMemU32(0xE00FF014, 0x0001 Items, ...) -- CPU_ReadMem(4 bytes @ 0xE00FF014) - Data: 02 20 F4 FF  returns 0x01 (0000ms, 32802ms total)
T67D4 1724:818 JLINK_ReadMemU32(0xE00FF018, 0x0001 Items, ...) -- CPU_ReadMem(4 bytes @ 0xE00FF018) - Data: 00 00 00 00  returns 0x01 (0001ms, 32803ms total)
T67D4 1724:819 JLINK_GetDebugInfo(0x100) -- Value=0xE00FF003  returns 0x00 (0000ms, 32803ms total)
T67D4 1724:819 JLINK_ReadMem (0xE00FFFF0, 0x0010 Bytes, ...) -- CPU_ReadMem(16 bytes @ 0xE00FFFF0) - Data: 0D 00 00 00 10 00 00 00 05 00 00 00 B1 00 00 00  returns 0x00 (0000ms, 32803ms total)
T67D4 1724:819 JLINK_ReadMem (0xE00FFFD0, 0x0020 Bytes, ...) -- CPU_ReadMem(32 bytes @ 0xE00FFFD0) - Data: 04 00 00 00 00 00 00 00 00 00 00 00 00 00 00 00 ...  returns 0x00 (0001ms, 32804ms total)
T67D4 1724:820 JLINK_ReadMemU32(0xE00FF000, 0x0001 Items, ...) -- CPU_ReadMem(4 bytes @ 0xE00FF000) - Data: 03 F0 F0 FF  returns 0x01 (0000ms, 32804ms total)
T67D4 1724:820 JLINK_ReadMem (0xE000EFF0, 0x0010 Bytes, ...) -- CPU_ReadMem(16 bytes @ 0xE000EFF0) - Data: 0D 00 00 00 E0 00 00 00 05 00 00 00 B1 00 00 00  returns 0x00 (0001ms, 32805ms total)
T67D4 1724:821 JLINK_ReadMem (0xE000EFD0, 0x0020 Bytes, ...) -- CPU_ReadMem(32 bytes @ 0xE000EFD0) - Data: 04 00 00 00 00 00 00 00 00 00 00 00 00 00 00 00 ...  returns 0x00 (0000ms, 32805ms total)
T67D4 1724:821 JLINK_ReadMemU32(0xE00FF004, 0x0001 Items, ...) -- CPU_ReadMem(4 bytes @ 0xE00FF004) - Data: 03 20 F0 FF  returns 0x01 (0001ms, 32806ms total)
T67D4 1724:822 JLINK_ReadMem (0xE0001FF0, 0x0010 Bytes, ...) -- CPU_ReadMem(16 bytes @ 0xE0001FF0) - Data: 0D 00 00 00 E0 00 00 00 05 00 00 00 B1 00 00 00  returns 0x00 (0000ms, 32806ms total)
T67D4 1724:822 JLINK_ReadMem (0xE0001FD0, 0x0020 Bytes, ...) -- CPU_ReadMem(32 bytes @ 0xE0001FD0) - Data: 04 00 00 00 00 00 00 00 00 00 00 00 00 00 00 00 ...  returns 0x00 (0000ms, 32806ms total)
T67D4 1724:822 JLINK_ReadMemU32(0xE00FF008, 0x0001 Items, ...) -- CPU_ReadMem(4 bytes @ 0xE00FF008) - Data: 03 30 F0 FF  returns 0x01 (0002ms, 32808ms total)
T67D4 1724:824 JLINK_ReadMem (0xE0002FF0, 0x0010 Bytes, ...) -- CPU_ReadMem(16 bytes @ 0xE0002FF0) - Data: 0D 00 00 00 E0 00 00 00 05 00 00 00 B1 00 00 00  returns 0x00 (0000ms, 32808ms total)
T67D4 1724:824 JLINK_ReadMem (0xE0002FD0, 0x0020 Bytes, ...) -- CPU_ReadMem(32 bytes @ 0xE0002FD0) - Data: 04 00 00 00 00 00 00 00 00 00 00 00 00 00 00 00 ...  returns 0x00 (0001ms, 32809ms total)
T67D4 1724:825 JLINK_ReadMemU32(0xE00FF00C, 0x0001 Items, ...) -- CPU_ReadMem(4 bytes @ 0xE00FF00C) - Data: 03 10 F0 FF  returns 0x01 (0000ms, 32809ms total)
T67D4 1724:825 JLINK_ReadMem (0xE0000FF0, 0x0010 Bytes, ...) -- CPU_ReadMem(16 bytes @ 0xE0000FF0) - Data: 0D 00 00 00 E0 00 00 00 05 00 00 00 B1 00 00 00  returns 0x00 (0001ms, 32810ms total)
T67D4 1724:826 JLINK_ReadMem (0xE0000FD0, 0x0020 Bytes, ...) -- CPU_ReadMem(32 bytes @ 0xE0000FD0) - Data: 04 00 00 00 00 00 00 00 00 00 00 00 00 00 00 00 ...  returns 0x00 (0001ms, 32811ms total)
T67D4 1724:827 JLINK_ReadMemU32(0xE00FF010, 0x0001 Items, ...) -- CPU_ReadMem(4 bytes @ 0xE00FF010) - Data: 03 10 F4 FF  returns 0x01 (0000ms, 32811ms total)
T67D4 1724:827 JLINK_ReadMem (0xE0040FF0, 0x0010 Bytes, ...) -- CPU_ReadMem(16 bytes @ 0xE0040FF0) - Data: 0D 00 00 00 90 00 00 00 05 00 00 00 B1 00 00 00  returns 0x00 (0001ms, 32812ms total)
T67D4 1724:828 JLINK_ReadMem (0xE0040FD0, 0x0020 Bytes, ...) -- CPU_ReadMem(32 bytes @ 0xE0040FD0) - Data: 04 00 00 00 00 00 00 00 00 00 00 00 00 00 00 00 ...  returns 0x00 (0000ms, 32812ms total)
T67D4 1724:828 JLINK_ReadMemU32(0xE00FF014, 0x0001 Items, ...) -- CPU_ReadMem(4 bytes @ 0xE00FF014) - Data: 02 20 F4 FF  returns 0x01 (0001ms, 32813ms total)
T67D4 1724:829 JLINK_ReadMemU32(0xE00FF018, 0x0001 Items, ...) -- CPU_ReadMem(4 bytes @ 0xE00FF018) - Data: 00 00 00 00  returns 0x01 (0000ms, 32813ms total)
T67D4 1724:829 JLINK_GetDebugInfo(0x100) -- Value=0xE00FF003  returns 0x00 (0000ms, 32813ms total)
T67D4 1724:829 JLINK_ReadMem (0xE00FFFF0, 0x0010 Bytes, ...) -- CPU_ReadMem(16 bytes @ 0xE00FFFF0) - Data: 0D 00 00 00 10 00 00 00 05 00 00 00 B1 00 00 00  returns 0x00 (0001ms, 32814ms total)
T67D4 1724:830 JLINK_ReadMem (0xE00FFFD0, 0x0020 Bytes, ...) -- CPU_ReadMem(32 bytes @ 0xE00FFFD0) - Data: 04 00 00 00 00 00 00 00 00 00 00 00 00 00 00 00 ...  returns 0x00 (0000ms, 32814ms total)
T67D4 1724:830 JLINK_ReadMemU32(0xE00FF000, 0x0001 Items, ...) -- CPU_ReadMem(4 bytes @ 0xE00FF000) - Data: 03 F0 F0 FF  returns 0x01 (0001ms, 32815ms total)
T67D4 1724:831 JLINK_ReadMem (0xE000EFF0, 0x0010 Bytes, ...) -- CPU_ReadMem(16 bytes @ 0xE000EFF0) - Data: 0D 00 00 00 E0 00 00 00 05 00 00 00 B1 00 00 00  returns 0x00 (0001ms, 32816ms total)
T67D4 1724:832 JLINK_ReadMem (0xE000EFD0, 0x0020 Bytes, ...) -- CPU_ReadMem(32 bytes @ 0xE000EFD0) - Data: 04 00 00 00 00 00 00 00 00 00 00 00 00 00 00 00 ...  returns 0x00 (0000ms, 32816ms total)
T67D4 1724:832 JLINK_ReadMemU32(0xE00FF004, 0x0001 Items, ...) -- CPU_ReadMem(4 bytes @ 0xE00FF004) - Data: 03 20 F0 FF  returns 0x01 (0000ms, 32816ms total)
T67D4 1724:832 JLINK_ReadMem (0xE0001FF0, 0x0010 Bytes, ...) -- CPU_ReadMem(16 bytes @ 0xE0001FF0) - Data: 0D 00 00 00 E0 00 00 00 05 00 00 00 B1 00 00 00  returns 0x00 (0002ms, 32818ms total)
T67D4 1724:834 JLINK_ReadMem (0xE0001FD0, 0x0020 Bytes, ...) -- CPU_ReadMem(32 bytes @ 0xE0001FD0) - Data: 04 00 00 00 00 00 00 00 00 00 00 00 00 00 00 00 ...  returns 0x00 (0000ms, 32818ms total)
T67D4 1724:834 JLINK_ReadMemU32(0xE00FF008, 0x0001 Items, ...) -- CPU_ReadMem(4 bytes @ 0xE00FF008) - Data: 03 30 F0 FF  returns 0x01 (0001ms, 32819ms total)
T67D4 1724:835 JLINK_ReadMem (0xE0002FF0, 0x0010 Bytes, ...) -- CPU_ReadMem(16 bytes @ 0xE0002FF0) - Data: 0D 00 00 00 E0 00 00 00 05 00 00 00 B1 00 00 00  returns 0x00 (0000ms, 32819ms total)
T67D4 1724:835 JLINK_ReadMem (0xE0002FD0, 0x0020 Bytes, ...) -- CPU_ReadMem(32 bytes @ 0xE0002FD0) - Data: 04 00 00 00 00 00 00 00 00 00 00 00 00 00 00 00 ...  returns 0x00 (0001ms, 32820ms total)
T67D4 1724:836 JLINK_ReadMemU32(0xE00FF00C, 0x0001 Items, ...) -- CPU_ReadMem(4 bytes @ 0xE00FF00C) - Data: 03 10 F0 FF  returns 0x01 (0000ms, 32820ms total)
T67D4 1724:836 JLINK_ReadMem (0xE0000FF0, 0x0010 Bytes, ...) -- CPU_ReadMem(16 bytes @ 0xE0000FF0) - Data: 0D 00 00 00 E0 00 00 00 05 00 00 00 B1 00 00 00  returns 0x00 (0001ms, 32821ms total)
T67D4 1724:837 JLINK_ReadMem (0xE0000FD0, 0x0020 Bytes, ...) -- CPU_ReadMem(32 bytes @ 0xE0000FD0) - Data: 04 00 00 00 00 00 00 00 00 00 00 00 00 00 00 00 ...  returns 0x00 (0001ms, 32822ms total)
T67D4 1724:838 JLINK_ReadMemU32(0xE00FF010, 0x0001 Items, ...) -- CPU_ReadMem(4 bytes @ 0xE00FF010) - Data: 03 10 F4 FF  returns 0x01 (0000ms, 32822ms total)
T67D4 1724:838 JLINK_ReadMem (0xE0040FF0, 0x0010 Bytes, ...) -- CPU_ReadMem(16 bytes @ 0xE0040FF0) - Data: 0D 00 00 00 90 00 00 00 05 00 00 00 B1 00 00 00  returns 0x00 (0001ms, 32823ms total)
T67D4 1724:839 JLINK_ReadMem (0xE0040FD0, 0x0020 Bytes, ...) -- CPU_ReadMem(32 bytes @ 0xE0040FD0) - Data: 04 00 00 00 00 00 00 00 00 00 00 00 00 00 00 00 ...  returns 0x00 (0001ms, 32824ms total)
T67D4 1724:840 JLINK_ReadMemU32(0xE00FF014, 0x0001 Items, ...) -- CPU_ReadMem(4 bytes @ 0xE00FF014) - Data: 02 20 F4 FF  returns 0x01 (0000ms, 32824ms total)
T67D4 1724:840 JLINK_ReadMemU32(0xE00FF018, 0x0001 Items, ...) -- CPU_ReadMem(4 bytes @ 0xE00FF018) - Data: 00 00 00 00  returns 0x01 (0001ms, 32825ms total)
T67D4 1724:841 JLINK_GetDebugInfo(0x100) -- Value=0xE00FF003  returns 0x00 (0000ms, 32825ms total)
T67D4 1724:841 JLINK_ReadMem (0xE00FFFF0, 0x0010 Bytes, ...) -- CPU_ReadMem(16 bytes @ 0xE00FFFF0) - Data: 0D 00 00 00 10 00 00 00 05 00 00 00 B1 00 00 00  returns 0x00 (0000ms, 32825ms total)
T67D4 1724:841 JLINK_ReadMem (0xE00FFFD0, 0x0020 Bytes, ...) -- CPU_ReadMem(32 bytes @ 0xE00FFFD0) - Data: 04 00 00 00 00 00 00 00 00 00 00 00 00 00 00 00 ...  returns 0x00 (0001ms, 32826ms total)
T67D4 1724:842 JLINK_ReadMemU32(0xE00FF000, 0x0001 Items, ...) -- CPU_ReadMem(4 bytes @ 0xE00FF000) - Data: 03 F0 F0 FF  returns 0x01 (0001ms, 32827ms total)
T67D4 1724:843 JLINK_ReadMem (0xE000EFF0, 0x0010 Bytes, ...) -- CPU_ReadMem(16 bytes @ 0xE000EFF0) - Data: 0D 00 00 00 E0 00 00 00 05 00 00 00 B1 00 00 00  returns 0x00 (0001ms, 32828ms total)
T67D4 1724:844 JLINK_ReadMem (0xE000EFD0, 0x0020 Bytes, ...) -- CPU_ReadMem(32 bytes @ 0xE000EFD0) - Data: 04 00 00 00 00 00 00 00 00 00 00 00 00 00 00 00 ...  returns 0x00 (0000ms, 32828ms total)
T67D4 1724:844 JLINK_ReadMemU32(0xE00FF004, 0x0001 Items, ...) -- CPU_ReadMem(4 bytes @ 0xE00FF004) - Data: 03 20 F0 FF  returns 0x01 (0001ms, 32829ms total)
T67D4 1724:845 JLINK_ReadMem (0xE0001FF0, 0x0010 Bytes, ...) -- CPU_ReadMem(16 bytes @ 0xE0001FF0) - Data: 0D 00 00 00 E0 00 00 00 05 00 00 00 B1 00 00 00  returns 0x00 (0001ms, 32830ms total)
T67D4 1724:846 JLINK_ReadMem (0xE0001FD0, 0x0020 Bytes, ...) -- CPU_ReadMem(32 bytes @ 0xE0001FD0) - Data: 04 00 00 00 00 00 00 00 00 00 00 00 00 00 00 00 ...  returns 0x00 (0000ms, 32830ms total)
T67D4 1724:846 JLINK_ReadMemU32(0xE00FF008, 0x0001 Items, ...) -- CPU_ReadMem(4 bytes @ 0xE00FF008) - Data: 03 30 F0 FF  returns 0x01 (0001ms, 32831ms total)
T67D4 1724:847 JLINK_ReadMem (0xE0002FF0, 0x0010 Bytes, ...) -- CPU_ReadMem(16 bytes @ 0xE0002FF0) - Data: 0D 00 00 00 E0 00 00 00 05 00 00 00 B1 00 00 00  returns 0x00 (0001ms, 32832ms total)
T67D4 1724:848 JLINK_ReadMem (0xE0002FD0, 0x0020 Bytes, ...) -- CPU_ReadMem(32 bytes @ 0xE0002FD0) - Data: 04 00 00 00 00 00 00 00 00 00 00 00 00 00 00 00 ...  returns 0x00 (0001ms, 32833ms total)
T67D4 1724:849 JLINK_ReadMemU32(0xE00FF00C, 0x0001 Items, ...) -- CPU_ReadMem(4 bytes @ 0xE00FF00C) - Data: 03 10 F0 FF  returns 0x01 (0000ms, 32833ms total)
T67D4 1724:849 JLINK_ReadMem (0xE0000FF0, 0x0010 Bytes, ...) -- CPU_ReadMem(16 bytes @ 0xE0000FF0) - Data: 0D 00 00 00 E0 00 00 00 05 00 00 00 B1 00 00 00  returns 0x00 (0001ms, 32834ms total)
T67D4 1724:850 JLINK_ReadMem (0xE0000FD0, 0x0020 Bytes, ...) -- CPU_ReadMem(32 bytes @ 0xE0000FD0) - Data: 04 00 00 00 00 00 00 00 00 00 00 00 00 00 00 00 ...  returns 0x00 (0001ms, 32835ms total)
T67D4 1724:851 JLINK_ReadMemU32(0xE00FF010, 0x0001 Items, ...) -- CPU_ReadMem(4 bytes @ 0xE00FF010) - Data: 03 10 F4 FF  returns 0x01 (0000ms, 32835ms total)
T67D4 1724:851 JLINK_ReadMem (0xE0040FF0, 0x0010 Bytes, ...) -- CPU_ReadMem(16 bytes @ 0xE0040FF0) - Data: 0D 00 00 00 90 00 00 00 05 00 00 00 B1 00 00 00  returns 0x00 (0001ms, 32836ms total)
T67D4 1724:852 JLINK_ReadMem (0xE0040FD0, 0x0020 Bytes, ...) -- CPU_ReadMem(32 bytes @ 0xE0040FD0) - Data: 04 00 00 00 00 00 00 00 00 00 00 00 00 00 00 00 ...  returns 0x00 (0001ms, 32837ms total)
T67D4 1724:853 JLINK_ReadMemU32(0xE00FF014, 0x0001 Items, ...) -- CPU_ReadMem(4 bytes @ 0xE00FF014) - Data: 02 20 F4 FF  returns 0x01 (0000ms, 32837ms total)
T67D4 1724:853 JLINK_ReadMemU32(0xE00FF018, 0x0001 Items, ...) -- CPU_ReadMem(4 bytes @ 0xE00FF018) - Data: 00 00 00 00  returns 0x01 (0001ms, 32838ms total)
T67D4 1724:854 JLINK_GetDebugInfo(0x100) -- Value=0xE00FF003  returns 0x00 (0000ms, 32838ms total)
T67D4 1724:854 JLINK_ReadMem (0xE00FFFF0, 0x0010 Bytes, ...) -- CPU_ReadMem(16 bytes @ 0xE00FFFF0) - Data: 0D 00 00 00 10 00 00 00 05 00 00 00 B1 00 00 00  returns 0x00 (0000ms, 32838ms total)
T67D4 1724:854 JLINK_ReadMem (0xE00FFFD0, 0x0020 Bytes, ...) -- CPU_ReadMem(32 bytes @ 0xE00FFFD0) - Data: 04 00 00 00 00 00 00 00 00 00 00 00 00 00 00 00 ...  returns 0x00 (0001ms, 32839ms total)
T67D4 1724:855 JLINK_ReadMemU32(0xE00FF000, 0x0001 Items, ...) -- CPU_ReadMem(4 bytes @ 0xE00FF000) - Data: 03 F0 F0 FF  returns 0x01 (0001ms, 32840ms total)
T67D4 1724:856 JLINK_ReadMem (0xE000EFF0, 0x0010 Bytes, ...) -- CPU_ReadMem(16 bytes @ 0xE000EFF0) - Data: 0D 00 00 00 E0 00 00 00 05 00 00 00 B1 00 00 00  returns 0x00 (0000ms, 32840ms total)
T67D4 1724:856 JLINK_ReadMem (0xE000EFD0, 0x0020 Bytes, ...) -- CPU_ReadMem(32 bytes @ 0xE000EFD0) - Data: 04 00 00 00 00 00 00 00 00 00 00 00 00 00 00 00 ...  returns 0x00 (0001ms, 32841ms total)
T67D4 1724:857 JLINK_ReadMemU32(0xE00FF004, 0x0001 Items, ...) -- CPU_ReadMem(4 bytes @ 0xE00FF004) - Data: 03 20 F0 FF  returns 0x01 (0001ms, 32842ms total)
T67D4 1724:858 JLINK_ReadMem (0xE0001FF0, 0x0010 Bytes, ...) -- CPU_ReadMem(16 bytes @ 0xE0001FF0) - Data: 0D 00 00 00 E0 00 00 00 05 00 00 00 B1 00 00 00  returns 0x00 (0000ms, 32842ms total)
T67D4 1724:858 JLINK_ReadMem (0xE0001FD0, 0x0020 Bytes, ...) -- CPU_ReadMem(32 bytes @ 0xE0001FD0) - Data: 04 00 00 00 00 00 00 00 00 00 00 00 00 00 00 00 ...  returns 0x00 (0001ms, 32843ms total)
T67D4 1724:859 JLINK_ReadMemU32(0xE00FF008, 0x0001 Items, ...) -- CPU_ReadMem(4 bytes @ 0xE00FF008) - Data: 03 30 F0 FF  returns 0x01 (0000ms, 32843ms total)
T67D4 1724:859 JLINK_ReadMem (0xE0002FF0, 0x0010 Bytes, ...) -- CPU_ReadMem(16 bytes @ 0xE0002FF0) - Data: 0D 00 00 00 E0 00 00 00 05 00 00 00 B1 00 00 00  returns 0x00 (0001ms, 32844ms total)
T67D4 1724:860 JLINK_ReadMem (0xE0002FD0, 0x0020 Bytes, ...) -- CPU_ReadMem(32 bytes @ 0xE0002FD0) - Data: 04 00 00 00 00 00 00 00 00 00 00 00 00 00 00 00 ...  returns 0x00 (0000ms, 32844ms total)
T67D4 1724:860 JLINK_ReadMemU32(0xE00FF00C, 0x0001 Items, ...) -- CPU_ReadMem(4 bytes @ 0xE00FF00C) - Data: 03 10 F0 FF  returns 0x01 (0001ms, 32845ms total)
T67D4 1724:861 JLINK_ReadMem (0xE0000FF0, 0x0010 Bytes, ...) -- CPU_ReadMem(16 bytes @ 0xE0000FF0) - Data: 0D 00 00 00 E0 00 00 00 05 00 00 00 B1 00 00 00  returns 0x00 (0001ms, 32846ms total)
T67D4 1724:862 JLINK_ReadMem (0xE0000FD0, 0x0020 Bytes, ...) -- CPU_ReadMem(32 bytes @ 0xE0000FD0) - Data: 04 00 00 00 00 00 00 00 00 00 00 00 00 00 00 00 ...  returns 0x00 (0000ms, 32846ms total)
T67D4 1724:862 JLINK_ReadMemU32(0xE00FF010, 0x0001 Items, ...) -- CPU_ReadMem(4 bytes @ 0xE00FF010) - Data: 03 10 F4 FF  returns 0x01 (0001ms, 32847ms total)
T67D4 1724:863 JLINK_ReadMem (0xE0040FF0, 0x0010 Bytes, ...) -- CPU_ReadMem(16 bytes @ 0xE0040FF0) - Data: 0D 00 00 00 90 00 00 00 05 00 00 00 B1 00 00 00  returns 0x00 (0000ms, 32847ms total)
T67D4 1724:863 JLINK_ReadMem (0xE0040FD0, 0x0020 Bytes, ...) -- CPU_ReadMem(32 bytes @ 0xE0040FD0) - Data: 04 00 00 00 00 00 00 00 00 00 00 00 00 00 00 00 ...  returns 0x00 (0000ms, 32847ms total)
T67D4 1724:863 JLINK_ReadMemU32(0xE00FF014, 0x0001 Items, ...) -- CPU_ReadMem(4 bytes @ 0xE00FF014) - Data: 02 20 F4 FF  returns 0x01 (0001ms, 32848ms total)
